
T0990 000:056 SEGGER J-Link V6.52d Log File (0000ms, 0042ms total)
T0990 000:056 DLL Compiled: Oct 15 2019 16:14:26 (0000ms, 0042ms total)
T0990 000:056 Logging started @ 2020-12-01 12:13 (0000ms, 0042ms total)
T0990 000:056 JLINK_SetWarnOutHandler(...) (0000ms, 0042ms total)
T0990 000:056 JLINK_OpenEx(...)
Firmware: J-Link V9 compiled May 17 2019 09:50:41
Hardware: V9.30
S/N: 269302398
OEM: SEGGER-EDU
Feature(s): FlashBP, GDB
TELNET listener socket opened on port 19021WEBSRV 
Starting webserver (0026ms, 0068ms total)
T0990 000:056 WEBSRV Webserver running on local port 19080 (0026ms, 0068ms total)
T0990 000:056   returns O.K. (0026ms, 0068ms total)
T0990 000:082 JLINK_SetErrorOutHandler(...) (0000ms, 0068ms total)
T0990 000:082 JLINK_ExecCommand("ProjectFile = "C:\Users\Alumno\Desktop\SED_EC_JO_20-21-3_Milestone\Proyecto\JLinkSettings.ini"", ...). Ref file found at: C:\Keil_v4b\ARM\Segger\JLinkDevices.ref (0003ms, 0071ms total)
T0990 000:082 XML referenced by ref file: C:\Program Files (x86)\SEGGER\JLink\JLinkDevices.xml (0003ms, 0071ms total)
T0990 000:082 C:\Program Files (x86)\SEGGER\JLink\JLinkDevices.xml evaluated successfully. (0005ms, 0073ms total)
T0990 000:082   returns 0x00 (0070ms, 0138ms total)
T0990 000:152 JLINK_ExecCommand("Device = LPC1768", ...). Device "LPC1768" selected.  returns 0x00 (0005ms, 0143ms total)
T0990 000:157 JLINK_ExecCommand("DisableConnectionTimeout", ...).   returns 0x01 (0000ms, 0143ms total)
T0990 000:157 JLINK_GetHardwareVersion()  returns 0x16B48 (0000ms, 0143ms total)
T0990 000:157 JLINK_GetDLLVersion()  returns 65204 (0000ms, 0143ms total)
T0990 000:162 JLINK_GetDLLVersion()  returns 65204 (0000ms, 0143ms total)
T0990 000:162 JLINK_GetCompileDateTime() (0000ms, 0143ms total)
T0990 000:163 JLINK_GetFirmwareString(...)
T0990 000:163 (0000ms, 0143ms total)
T0990 000:165 JLINK_GetHardwareVersion()  returns 0x16B48 (0000ms, 0143ms total)
T0990 000:172 JLINK_TIF_Select(JLINKARM_TIF_JTAG)  returns 0x00 (0001ms, 0144ms total)
T0990 000:173 JLINK_SetSpeed(2000) (0000ms, 0144ms total)
T0990 000:173 JLINK_GetIdData(...) >0x2F8 JTAG>TotalIRLen = 4, IRPrint = 0x01 >0x30 JTAG> >0x30 JTAG>JTAG chain detection found 1 devices: #0 Id: 0x4BA00477, IRLen: 04, CoreSight JTAG-DPScanning AP map to find all available APs >0x78 JTAG> >0x48 JTAG> >0x40 JTAG> >0x40 JTAG> >0x48 JTAG> >0x40 JTAG>AP[1]: Stopped AP scan as end of AP map has been reachedAP[0]: AHB-AP (IDR: 0x24770011)Iterating through AP map to find AHB-AP to use >0x78 JTAG> >0x48 JTAG> >0x48 JTAG> >0x70 JTAG> >0x40 JTAG> >0x30 JTAG>
 >0x40 JTAG> >0x40 JTAG>AP[0]: Core foundAP[0]: AHB-AP ROM base: 0xE00FF000 >0x40 JTAG> >0x40 JTAG> >0x30 JTAG> >0x40 JTAG> >0x40 JTAG>CPUID register: 0x412FC230. Implementer code: 0x41 (ARM)Found Cortex-M3 r2p0, Little endian. -- Max. mem block: 0x00010F28 -- CPU_ReadMem(4 bytes @ 0xE000EDF0) -- CPU_WriteMem(4 bytes @ 0xE000EDF0) -- CPU_ReadMem(4 bytes @ 0xE0002000)FPUnit: 6 code (BP) slots and 2 literal slots -- CPU_ReadMem(4 bytes @ 0xE000EDFC) -- CPU_WriteMem(4 bytes @ 0xE000EDFC)
 -- CPU_ReadMem(4 bytes @ 0xE0001000) -- CPU_WriteMem(4 bytes @ 0xE0001000) -- CPU_ReadMem(4 bytes @ 0xE000ED88) -- CPU_WriteMem(4 bytes @ 0xE000ED88) -- CPU_ReadMem(4 bytes @ 0xE000ED88) -- CPU_WriteMem(4 bytes @ 0xE000ED88)CoreSight components:ROMTbl[0] @ E00FF000 -- CPU_ReadMem(16 bytes @ 0xE00FF000) -- CPU_ReadMem(16 bytes @ 0xE000EFF0) -- CPU_ReadMem(16 bytes @ 0xE000EFE0)ROMTbl[0][0]: E000E000, CID: B105E00D, PID: 002BB000 SCS -- CPU_ReadMem(16 bytes @ 0xE0001FF0)
 -- CPU_ReadMem(16 bytes @ 0xE0001FE0)ROMTbl[0][1]: E0001000, CID: B105E00D, PID: 002BB002 DWT -- CPU_ReadMem(16 bytes @ 0xE0002FF0) -- CPU_ReadMem(16 bytes @ 0xE0002FE0)ROMTbl[0][2]: E0002000, CID: B105E00D, PID: 002BB003 FPB -- CPU_ReadMem(16 bytes @ 0xE0000FF0) -- CPU_ReadMem(16 bytes @ 0xE0000FE0)ROMTbl[0][3]: E0000000, CID: B105E00D, PID: 002BB001 ITM -- CPU_ReadMem(16 bytes @ 0xE00FF010) -- CPU_ReadMem(16 bytes @ 0xE0040FF0) -- CPU_ReadMem(16 bytes @ 0xE0040FE0)
ROMTbl[0][4]: E0040000, CID: B105900D, PID: 002BB923 TPIU-Lite -- CPU_ReadMem(16 bytes @ 0xE0041FF0) -- CPU_ReadMem(16 bytes @ 0xE0041FE0)ROMTbl[0][5]: E0041000, CID: B105900D, PID: 002BB924 ETM-M3 ScanLen=4 NumDevices=1 aId[0]=0x4BA00477 aIrRead[0]=0 aScanLen[0]=0 aScanRead[0]=0 (0049ms, 0193ms total)
T0990 000:222 JLINK_JTAG_GetDeviceID(DeviceIndex = 0)  returns 0x4BA00477 (0000ms, 0193ms total)
T0990 000:222 JLINK_JTAG_GetDeviceInfo(DeviceIndex = 0)  returns 0x00 (0000ms, 0193ms total)
T0990 000:222 JLINK_GetDeviceFamily()  returns 3 (0000ms, 0193ms total)
T0990 000:224 JLINK_ReadMem (0xE00FFFF0, 0x0010 Bytes, ...) -- CPU_ReadMem(16 bytes @ 0xE00FFFF0) - Data: 0D 00 00 00 10 00 00 00 05 00 00 00 B1 00 00 00  returns 0x00 (0001ms, 0194ms total)
T0990 000:225 JLINK_ReadMem (0xE00FFFD0, 0x0020 Bytes, ...) -- CPU_ReadMem(32 bytes @ 0xE00FFFD0) - Data: 00 00 00 00 00 00 00 00 00 00 00 00 00 00 00 00 ...  returns 0x00 (0001ms, 0195ms total)
T0990 000:226 JLINK_ReadMem (0xE00FF000, 0x0018 Bytes, ...) -- CPU_ReadMem(24 bytes @ 0xE00FF000) - Data: 03 F0 F0 FF 03 20 F0 FF 03 30 F0 FF 03 10 F0 FF ...  returns 0x00 (0000ms, 0195ms total)
T0990 000:226 JLINK_ReadMemU32(0xE000ED00, 0x0001 Items, ...) -- CPU_ReadMem(4 bytes @ 0xE000ED00) - Data: 30 C2 2F 41  returns 1 (0001ms, 0196ms total)
T0990 000:227 JLINK_SetResetType(JLINKARM_CM3_RESET_TYPE_NORMAL)  returns ??? (0000ms, 0196ms total)
T0990 000:227 JLINK_Reset() -- CPU is running -- CPU_WriteMem(4 bytes @ 0xE000EDF0) -- CPU is running -- CPU_WriteMem(4 bytes @ 0xE000EDFC)Reset: Halt core after reset via DEMCR.VC_CORERESET.Reset: Reset device via AIRCR.SYSRESETREQ. -- CPU is running -- CPU_WriteMem(4 bytes @ 0xE000ED0C) -- CPU_ReadMem(4 bytes @ 0xE000EDF0) -- CPU_ReadMem(4 bytes @ 0xE000EDF0) -- CPU is running -- CPU_WriteMem(4 bytes @ 0xE000EDF0) -- CPU is running -- CPU_WriteMem(4 bytes @ 0xE000EDFC)
 -- CPU_ReadMem(4 bytes @ 0xE000EDF0) -- CPU_WriteMem(4 bytes @ 0xE000EDFC) -- CPU_WriteMem(4 bytes @ 0xE0001028) -- CPU_WriteMem(4 bytes @ 0xE0001038) -- CPU_WriteMem(4 bytes @ 0xE0001048) -- CPU_WriteMem(4 bytes @ 0xE0001058) -- CPU_WriteMem(4 bytes @ 0xE000EDFC) -- CPU_WriteMem(4 bytes @ 0xE0001028) -- CPU_WriteMem(4 bytes @ 0xE0001028) -- CPU_WriteMem(4 bytes @ 0xE000EDFC) -- CPU_WriteMem(4 bytes @ 0xE0001028) -- CPU_WriteMem(4 bytes @ 0xE0001028) -- CPU_WriteMem(4 bytes @ 0xE000EDFC)
 -- CPU_WriteMem(4 bytes @ 0xE0001028) -- CPU_WriteMem(4 bytes @ 0xE0001028) -- CPU_WriteMem(4 bytes @ 0xE000EDFC) -- CPU_WriteMem(4 bytes @ 0xE0001028) -- CPU_WriteMem(4 bytes @ 0xE0001028) -- CPU_WriteMem(4 bytes @ 0xE000EDFC) -- CPU_WriteMem(4 bytes @ 0xE0001050) -- CPU_WriteMem(4 bytes @ 0xE0001054) -- CPU_WriteMem(4 bytes @ 0xE0001058) -- CPU_ReadMem(4 bytes @ 0xE0001000) -- CPU_WriteMem(4 bytes @ 0xE000EDFC) -- CPU_WriteMem(4 bytes @ 0xE0001058) -- CPU_ReadMem(4 bytes @ 0x00000004)
 -- CPU_ReadMem(4 bytes @ 0xE0002000) -- CPU_ReadMem(4 bytes @ 0xE0002008) -- CPU_ReadMem(4 bytes @ 0xE000200C) -- CPU_ReadMem(4 bytes @ 0xE0002010) -- CPU_ReadMem(4 bytes @ 0xE0002014) -- CPU_ReadMem(4 bytes @ 0xE0002018) -- CPU_ReadMem(4 bytes @ 0xE000201C) -- CPU_WriteMem(4 bytes @ 0xE0002000) -- CPU_WriteMem(4 bytes @ 0xE0002008) -- CPU_WriteMem(4 bytes @ 0xE000200C) -- CPU_WriteMem(4 bytes @ 0xE0002010) -- CPU_WriteMem(4 bytes @ 0xE0002014) -- CPU_WriteMem(4 bytes @ 0xE0002018)
 -- CPU_WriteMem(4 bytes @ 0xE000201C) -- CPU_ReadMem(4 bytes @ 0xE0001000) -- CPU_ReadMem(4 bytes @ 0x400FC040) -- CPU_WriteMem(4 bytes @ 0xE0002000) -- CPU_WriteMem(4 bytes @ 0xE0002008) -- CPU_WriteMem(4 bytes @ 0xE000200C) -- CPU_WriteMem(4 bytes @ 0xE0002010) -- CPU_WriteMem(4 bytes @ 0xE0002014) -- CPU_WriteMem(4 bytes @ 0xE0002018) -- CPU_WriteMem(4 bytes @ 0xE000201C) -- CPU_WriteMem(4 bytes @ 0xE0002000) -- CPU_ReadMem(4 bytes @ 0xE000EDFC) -- CPU_ReadMem(4 bytes @ 0xE0001000) >0x40 JTAG>
 (0299ms, 0495ms total)
T0990 000:526 JLINK_Halt()  returns 0x00 (0000ms, 0495ms total)
T0990 000:526 JLINK_IsHalted()  returns TRUE (0000ms, 0495ms total)
T0990 000:526 JLINK_ReadMemU32(0xE000EDF0, 0x0001 Items, ...) -- CPU_ReadMem(4 bytes @ 0xE000EDF0) - Data: 03 00 03 00  returns 1 (0002ms, 0497ms total)
T0990 000:528 JLINK_WriteU32(0xE000EDF0, 0xA05F0003) -- CPU_WriteMem(4 bytes @ 0xE000EDF0)  returns 0 (0000ms, 0497ms total)
T0990 000:528 JLINK_WriteU32(0xE000EDFC, 0x01000000) -- CPU_WriteMem(4 bytes @ 0xE000EDFC)  returns 0 (0000ms, 0497ms total)
T0990 000:533 JLINK_GetHWStatus(...)  returns 0x00 (0001ms, 0498ms total)
T0990 000:538 JLINK_GetNumBPUnits(Type = 0xFFFFFF00)  returns 0x06 (0000ms, 0498ms total)
T0990 000:538 JLINK_GetNumBPUnits(Type = 0xF0)  returns 0x2000 (0000ms, 0498ms total)
T0990 000:538 JLINK_GetNumWPUnits()  returns 0x04 (0000ms, 0498ms total)
T0990 000:542 JLINK_GetSpeed()  returns 0x7D0 (0000ms, 0498ms total)
T0990 000:545 JLINK_ReadMemU32(0xE000E004, 0x0001 Items, ...) -- CPU_ReadMem(4 bytes @ 0xE000E004) - Data: 01 00 00 00  returns 1 (0001ms, 0499ms total)
T0990 000:546 JLINK_ReadMemU32(0xE000E004, 0x0001 Items, ...) -- CPU_ReadMem(4 bytes @ 0xE000E004) - Data: 01 00 00 00  returns 1 (0000ms, 0499ms total)
T0990 000:546 JLINK_WriteMem(0xE0001000, 0x001C Bytes, ...) - Data: 01 00 00 00 00 00 00 00 00 00 00 00 00 00 00 00 ... -- CPU_WriteMem(28 bytes @ 0xE0001000)  returns 0x1C (0001ms, 0500ms total)
T0990 000:547 JLINK_ReadMem (0xE0001000, 0x001C Bytes, ...) -- CPU_ReadMem(28 bytes @ 0xE0001000) - Data: 01 00 00 40 00 00 00 00 00 00 00 00 00 00 00 00 ...  returns 0x00 (0001ms, 0501ms total)
T0990 000:548 JLINK_Halt()  returns 0x00 (0000ms, 0501ms total)
T0990 000:548 JLINK_IsHalted() -- CPU_ReadMem(4 bytes @ 0x400FC040)  returns TRUE (0001ms, 0502ms total)
T0990 000:551 JLINK_WriteMem(0x10000000, 0x01E4 Bytes, ...) - Data: 00 BE 0A E0 0D 78 2D 06 68 40 08 24 40 00 00 D3 ... -- CPU_WriteMem(484 bytes @ 0x10000000)  returns 0x1E4 (0006ms, 0507ms total)
T0990 000:557 JLINK_WriteReg(R0, 0x00000000)  returns 0x00 (0000ms, 0507ms total)
T0990 000:557 JLINK_WriteReg(R1, 0x00B71B00)  returns 0x00 (0000ms, 0507ms total)
T0990 000:557 JLINK_WriteReg(R2, 0x00000001)  returns 0x00 (0000ms, 0507ms total)
T0990 000:557 JLINK_WriteReg(R3, 0x00000000)  returns 0x00 (0000ms, 0507ms total)
T0990 000:557 JLINK_WriteReg(R4, 0x00000000)  returns 0x00 (0000ms, 0507ms total)
T0990 000:557 JLINK_WriteReg(R5, 0x00000000)  returns 0x00 (0000ms, 0507ms total)
T0990 000:557 JLINK_WriteReg(R6, 0x00000000)  returns 0x00 (0000ms, 0507ms total)
T0990 000:557 JLINK_WriteReg(R7, 0x00000000)  returns 0x00 (0000ms, 0507ms total)
T0990 000:557 JLINK_WriteReg(R8, 0x00000000)  returns 0x00 (0000ms, 0507ms total)
T0990 000:557 JLINK_WriteReg(R9, 0x100001DC)  returns 0x00 (0000ms, 0507ms total)
T0990 000:557 JLINK_WriteReg(R10, 0x00000000)  returns 0x00 (0000ms, 0507ms total)
T0990 000:557 JLINK_WriteReg(R11, 0x00000000)  returns 0x00 (0000ms, 0507ms total)
T0990 000:557 JLINK_WriteReg(R12, 0x00000000)  returns 0x00 (0000ms, 0507ms total)
T0990 000:557 JLINK_WriteReg(R13 (SP), 0x10000800)  returns 0x00 (0000ms, 0507ms total)
T0990 000:557 JLINK_WriteReg(R14, 0x10000001)  returns 0x00 (0000ms, 0507ms total)
T0990 000:557 JLINK_WriteReg(R15 (PC), 0x10000044)  returns 0x00 (0000ms, 0507ms total)
T0990 000:557 JLINK_WriteReg(XPSR, 0x01000000)  returns 0x00 (0000ms, 0507ms total)
T0990 000:557 JLINK_WriteReg(MSP, 0x10000800)  returns 0x00 (0000ms, 0507ms total)
T0990 000:557 JLINK_WriteReg(PSP, 0x10000800)  returns 0x00 (0000ms, 0507ms total)
T0990 000:557 JLINK_WriteReg(CFBP, 0x00000000)  returns 0x00 (0000ms, 0507ms total)
T0990 000:557 JLINK_SetBPEx(Addr = 0x10000000, Type = 0xFFFFFFF2)  returns 0x00000001 (0000ms, 0507ms total)
T0990 000:557 JLINK_Go() -- CPU_ReadMem(4 bytes @ 0xE0001000) -- CPU_WriteMem(4 bytes @ 0xE0002008) -- CPU_WriteMem(4 bytes @ 0xE000200C) -- CPU_WriteMem(4 bytes @ 0xE0002010) -- CPU_WriteMem(4 bytes @ 0xE0002014) -- CPU_WriteMem(4 bytes @ 0xE0002018) -- CPU_WriteMem(4 bytes @ 0xE000201C) -- CPU_WriteMem(4 bytes @ 0xE0001004) (0007ms, 0514ms total)
T0990 000:564 JLINK_IsHalted()  returns TRUE (0003ms, 0517ms total)
T0990 000:567 JLINK_ReadReg(R15 (PC))  returns 0x10000000 (0000ms, 0514ms total)
T0990 000:567 JLINK_ClrBPEx(BPHandle = 0x00000001)  returns 0x00 (0000ms, 0514ms total)
T0990 000:567 JLINK_ReadReg(R0)  returns 0x00000000 (0000ms, 0514ms total)
T0990 000:567 JLINK_WriteReg(R0, 0x00000000)  returns 0x00 (0000ms, 0514ms total)
T0990 000:567 JLINK_WriteReg(R1, 0x00001000)  returns 0x00 (0000ms, 0514ms total)
T0990 000:567 JLINK_WriteReg(R2, 0x000000FF)  returns 0x00 (0000ms, 0514ms total)
T0990 000:567 JLINK_WriteReg(R3, 0x00000000)  returns 0x00 (0000ms, 0514ms total)
T0990 000:567 JLINK_WriteReg(R4, 0x00000000)  returns 0x00 (0000ms, 0514ms total)
T0990 000:567 JLINK_WriteReg(R5, 0x00000000)  returns 0x00 (0000ms, 0514ms total)
T0990 000:567 JLINK_WriteReg(R6, 0x00000000)  returns 0x00 (0000ms, 0514ms total)
T0990 000:567 JLINK_WriteReg(R7, 0x00000000)  returns 0x00 (0000ms, 0514ms total)
T0990 000:567 JLINK_WriteReg(R8, 0x00000000)  returns 0x00 (0000ms, 0514ms total)
T0990 000:567 JLINK_WriteReg(R9, 0x100001DC)  returns 0x00 (0000ms, 0514ms total)
T0990 000:567 JLINK_WriteReg(R10, 0x00000000)  returns 0x00 (0000ms, 0514ms total)
T0990 000:567 JLINK_WriteReg(R11, 0x00000000)  returns 0x00 (0000ms, 0514ms total)
T0990 000:567 JLINK_WriteReg(R12, 0x00000000)  returns 0x00 (0000ms, 0514ms total)
T0990 000:567 JLINK_WriteReg(R13 (SP), 0x10000800)  returns 0x00 (0000ms, 0514ms total)
T0990 000:567 JLINK_WriteReg(R14, 0x10000001)  returns 0x00 (0000ms, 0514ms total)
T0990 000:567 JLINK_WriteReg(R15 (PC), 0x10000020)  returns 0x00 (0000ms, 0514ms total)
T0990 000:567 JLINK_WriteReg(XPSR, 0x01000000)  returns 0x00 (0000ms, 0514ms total)
T0990 000:567 JLINK_WriteReg(MSP, 0x10000800)  returns 0x00 (0000ms, 0514ms total)
T0990 000:567 JLINK_WriteReg(PSP, 0x10000800)  returns 0x00 (0000ms, 0514ms total)
T0990 000:567 JLINK_WriteReg(CFBP, 0x00000000)  returns 0x00 (0000ms, 0514ms total)
T0990 000:567 JLINK_SetBPEx(Addr = 0x10000000, Type = 0xFFFFFFF2)  returns 0x00000002 (0000ms, 0514ms total)
T0990 000:567 JLINK_Go() -- CPU_ReadMem(4 bytes @ 0xE0001000) (0005ms, 0519ms total)
T0990 000:572 JLINK_IsHalted()  returns TRUE (0003ms, 0522ms total)
T0990 000:575 JLINK_ReadReg(R15 (PC))  returns 0x10000000 (0000ms, 0519ms total)
T0990 000:575 JLINK_ClrBPEx(BPHandle = 0x00000002)  returns 0x00 (0000ms, 0519ms total)
T0990 000:575 JLINK_ReadReg(R0)  returns 0x00000001 (0000ms, 0519ms total)
T0990 000:575 JLINK_WriteReg(R0, 0x00000000)  returns 0x00 (0000ms, 0519ms total)
T0990 000:575 JLINK_WriteReg(R1, 0x00001000)  returns 0x00 (0000ms, 0519ms total)
T0990 000:575 JLINK_WriteReg(R2, 0x000000FF)  returns 0x00 (0000ms, 0519ms total)
T0990 000:575 JLINK_WriteReg(R3, 0x00000000)  returns 0x00 (0000ms, 0519ms total)
T0990 000:575 JLINK_WriteReg(R4, 0x00000000)  returns 0x00 (0000ms, 0519ms total)
T0990 000:575 JLINK_WriteReg(R5, 0x00000000)  returns 0x00 (0000ms, 0519ms total)
T0990 000:575 JLINK_WriteReg(R6, 0x00000000)  returns 0x00 (0000ms, 0519ms total)
T0990 000:575 JLINK_WriteReg(R7, 0x00000000)  returns 0x00 (0000ms, 0519ms total)
T0990 000:575 JLINK_WriteReg(R8, 0x00000000)  returns 0x00 (0000ms, 0519ms total)
T0990 000:575 JLINK_WriteReg(R9, 0x100001DC)  returns 0x00 (0000ms, 0519ms total)
T0990 000:575 JLINK_WriteReg(R10, 0x00000000)  returns 0x00 (0000ms, 0519ms total)
T0990 000:575 JLINK_WriteReg(R11, 0x00000000)  returns 0x00 (0000ms, 0519ms total)
T0990 000:575 JLINK_WriteReg(R12, 0x00000000)  returns 0x00 (0000ms, 0519ms total)
T0990 000:575 JLINK_WriteReg(R13 (SP), 0x10000800)  returns 0x00 (0000ms, 0519ms total)
T0990 000:575 JLINK_WriteReg(R14, 0x10000001)  returns 0x00 (0000ms, 0519ms total)
T0990 000:575 JLINK_WriteReg(R15 (PC), 0x10000110)  returns 0x00 (0000ms, 0519ms total)
T0990 000:575 JLINK_WriteReg(XPSR, 0x01000000)  returns 0x00 (0000ms, 0519ms total)
T0990 000:575 JLINK_WriteReg(MSP, 0x10000800)  returns 0x00 (0000ms, 0519ms total)
T0990 000:575 JLINK_WriteReg(PSP, 0x10000800)  returns 0x00 (0000ms, 0519ms total)
T0990 000:575 JLINK_WriteReg(CFBP, 0x00000000)  returns 0x00 (0000ms, 0519ms total)
T0990 000:575 JLINK_SetBPEx(Addr = 0x10000000, Type = 0xFFFFFFF2)  returns 0x00000003 (0000ms, 0519ms total)
T0990 000:575 JLINK_Go() -- CPU_ReadMem(4 bytes @ 0xE0001000) (0004ms, 0523ms total)
T0990 000:579 JLINK_IsHalted()  returns FALSE (0000ms, 0523ms total)
T0990 000:606 JLINK_IsHalted()  returns FALSE (0000ms, 0523ms total)
T0990 000:609 JLINK_IsHalted()  returns FALSE (0000ms, 0523ms total)
T0990 000:611 JLINK_IsHalted()  returns FALSE (0001ms, 0524ms total)
T0990 000:613 JLINK_IsHalted()  returns FALSE (0000ms, 0523ms total)
T0990 000:615 JLINK_IsHalted()  returns FALSE (0000ms, 0523ms total)
T0990 000:617 JLINK_IsHalted()  returns FALSE (0000ms, 0523ms total)
T0990 000:619 JLINK_IsHalted()  returns FALSE (0000ms, 0523ms total)
T0990 000:623 JLINK_IsHalted()  returns FALSE (0000ms, 0523ms total)
T0990 000:626 JLINK_IsHalted()  returns FALSE (0000ms, 0523ms total)
T0990 000:628 JLINK_IsHalted()  returns FALSE (0000ms, 0523ms total)
T0990 000:629 JLINK_IsHalted()  returns FALSE (0000ms, 0523ms total)
T0990 000:631 JLINK_IsHalted()  returns FALSE (0000ms, 0523ms total)
T0990 000:633 JLINK_IsHalted()  returns FALSE (0000ms, 0523ms total)
T0990 000:635 JLINK_IsHalted()  returns FALSE (0001ms, 0524ms total)
T0990 000:638 JLINK_IsHalted()  returns FALSE (0000ms, 0523ms total)
T0990 000:640 JLINK_IsHalted()  returns FALSE (0000ms, 0523ms total)
T0990 000:647 JLINK_IsHalted()  returns FALSE (0000ms, 0523ms total)
T0990 000:649 JLINK_IsHalted()  returns FALSE (0001ms, 0524ms total)
T0990 000:652 JLINK_IsHalted()  returns FALSE (0000ms, 0523ms total)
T0990 000:654 JLINK_IsHalted()  returns FALSE (0000ms, 0523ms total)
T0990 000:655 JLINK_IsHalted()  returns FALSE (0000ms, 0523ms total)
T0990 000:657 JLINK_IsHalted()  returns FALSE (0000ms, 0523ms total)
T0990 000:659 JLINK_IsHalted()  returns FALSE (0001ms, 0524ms total)
T0990 000:661 JLINK_IsHalted()  returns FALSE (0000ms, 0523ms total)
T0990 000:663 JLINK_IsHalted()  returns FALSE (0000ms, 0523ms total)
T0990 000:665 JLINK_IsHalted()  returns FALSE (0000ms, 0523ms total)
T0990 000:668 JLINK_IsHalted()  returns FALSE (0000ms, 0523ms total)
T0990 000:670 JLINK_IsHalted()  returns FALSE (0000ms, 0523ms total)
T0990 000:672 JLINK_IsHalted()  returns FALSE (0000ms, 0523ms total)
T0990 000:674 JLINK_IsHalted()  returns FALSE (0001ms, 0524ms total)
T0990 000:677 JLINK_IsHalted()  returns FALSE (0000ms, 0523ms total)
T0990 000:679 JLINK_IsHalted()  returns FALSE (0000ms, 0523ms total)
T0990 000:681 JLINK_IsHalted()  returns TRUE (0004ms, 0527ms total)
T0990 000:685 JLINK_ReadReg(R15 (PC))  returns 0x10000000 (0000ms, 0523ms total)
T0990 000:685 JLINK_ClrBPEx(BPHandle = 0x00000003)  returns 0x00 (0000ms, 0523ms total)
T0990 000:685 JLINK_ReadReg(R0)  returns 0x00000000 (0000ms, 0523ms total)
T0990 000:686 JLINK_WriteReg(R0, 0x00001000)  returns 0x00 (0000ms, 0523ms total)
T0990 000:686 JLINK_WriteReg(R1, 0x00001000)  returns 0x00 (0000ms, 0523ms total)
T0990 000:686 JLINK_WriteReg(R2, 0x000000FF)  returns 0x00 (0000ms, 0523ms total)
T0990 000:686 JLINK_WriteReg(R3, 0x00000000)  returns 0x00 (0000ms, 0523ms total)
T0990 000:686 JLINK_WriteReg(R4, 0x00000000)  returns 0x00 (0000ms, 0523ms total)
T0990 000:686 JLINK_WriteReg(R5, 0x00000000)  returns 0x00 (0000ms, 0523ms total)
T0990 000:686 JLINK_WriteReg(R6, 0x00000000)  returns 0x00 (0000ms, 0523ms total)
T0990 000:686 JLINK_WriteReg(R7, 0x00000000)  returns 0x00 (0000ms, 0523ms total)
T0990 000:686 JLINK_WriteReg(R8, 0x00000000)  returns 0x00 (0000ms, 0523ms total)
T0990 000:686 JLINK_WriteReg(R9, 0x100001DC)  returns 0x00 (0000ms, 0523ms total)
T0990 000:686 JLINK_WriteReg(R10, 0x00000000)  returns 0x00 (0000ms, 0523ms total)
T0990 000:686 JLINK_WriteReg(R11, 0x00000000)  returns 0x00 (0000ms, 0523ms total)
T0990 000:686 JLINK_WriteReg(R12, 0x00000000)  returns 0x00 (0000ms, 0523ms total)
T0990 000:686 JLINK_WriteReg(R13 (SP), 0x10000800)  returns 0x00 (0000ms, 0523ms total)
T0990 000:686 JLINK_WriteReg(R14, 0x10000001)  returns 0x00 (0000ms, 0523ms total)
T0990 000:686 JLINK_WriteReg(R15 (PC), 0x10000020)  returns 0x00 (0000ms, 0523ms total)
T0990 000:686 JLINK_WriteReg(XPSR, 0x01000000)  returns 0x00 (0000ms, 0523ms total)
T0990 000:686 JLINK_WriteReg(MSP, 0x10000800)  returns 0x00 (0000ms, 0523ms total)
T0990 000:686 JLINK_WriteReg(PSP, 0x10000800)  returns 0x00 (0000ms, 0523ms total)
T0990 000:686 JLINK_WriteReg(CFBP, 0x00000000)  returns 0x00 (0001ms, 0524ms total)
T0990 000:687 JLINK_SetBPEx(Addr = 0x10000000, Type = 0xFFFFFFF2)  returns 0x00000004 (0000ms, 0524ms total)
T0990 000:687 JLINK_Go() -- CPU_ReadMem(4 bytes @ 0xE0001000) (0004ms, 0528ms total)
T0990 000:691 JLINK_IsHalted()  returns TRUE (0004ms, 0532ms total)
T0990 000:695 JLINK_ReadReg(R15 (PC))  returns 0x10000000 (0000ms, 0528ms total)
T0990 000:695 JLINK_ClrBPEx(BPHandle = 0x00000004)  returns 0x00 (0000ms, 0528ms total)
T0990 000:695 JLINK_ReadReg(R0)  returns 0x00000001 (0000ms, 0528ms total)
T0990 000:695 JLINK_WriteReg(R0, 0x00001000)  returns 0x00 (0000ms, 0528ms total)
T0990 000:695 JLINK_WriteReg(R1, 0x00001000)  returns 0x00 (0000ms, 0528ms total)
T0990 000:695 JLINK_WriteReg(R2, 0x000000FF)  returns 0x00 (0000ms, 0528ms total)
T0990 000:695 JLINK_WriteReg(R3, 0x00000000)  returns 0x00 (0000ms, 0528ms total)
T0990 000:695 JLINK_WriteReg(R4, 0x00000000)  returns 0x00 (0000ms, 0528ms total)
T0990 000:695 JLINK_WriteReg(R5, 0x00000000)  returns 0x00 (0000ms, 0528ms total)
T0990 000:695 JLINK_WriteReg(R6, 0x00000000)  returns 0x00 (0000ms, 0528ms total)
T0990 000:695 JLINK_WriteReg(R7, 0x00000000)  returns 0x00 (0000ms, 0528ms total)
T0990 000:695 JLINK_WriteReg(R8, 0x00000000)  returns 0x00 (0000ms, 0528ms total)
T0990 000:695 JLINK_WriteReg(R9, 0x100001DC)  returns 0x00 (0000ms, 0528ms total)
T0990 000:695 JLINK_WriteReg(R10, 0x00000000)  returns 0x00 (0001ms, 0529ms total)
T0990 000:696 JLINK_WriteReg(R11, 0x00000000)  returns 0x00 (0000ms, 0529ms total)
T0990 000:696 JLINK_WriteReg(R12, 0x00000000)  returns 0x00 (0000ms, 0529ms total)
T0990 000:696 JLINK_WriteReg(R13 (SP), 0x10000800)  returns 0x00 (0000ms, 0529ms total)
T0990 000:696 JLINK_WriteReg(R14, 0x10000001)  returns 0x00 (0000ms, 0529ms total)
T0990 000:696 JLINK_WriteReg(R15 (PC), 0x10000110)  returns 0x00 (0000ms, 0529ms total)
T0990 000:696 JLINK_WriteReg(XPSR, 0x01000000)  returns 0x00 (0000ms, 0529ms total)
T0990 000:696 JLINK_WriteReg(MSP, 0x10000800)  returns 0x00 (0000ms, 0529ms total)
T0990 000:696 JLINK_WriteReg(PSP, 0x10000800)  returns 0x00 (0000ms, 0529ms total)
T0990 000:696 JLINK_WriteReg(CFBP, 0x00000000)  returns 0x00 (0000ms, 0529ms total)
T0990 000:696 JLINK_SetBPEx(Addr = 0x10000000, Type = 0xFFFFFFF2)  returns 0x00000005 (0000ms, 0529ms total)
T0990 000:696 JLINK_Go() -- CPU_ReadMem(4 bytes @ 0xE0001000) (0004ms, 0533ms total)
T0990 000:700 JLINK_IsHalted()  returns FALSE (0001ms, 0534ms total)
T0990 000:706 JLINK_IsHalted()  returns FALSE (0000ms, 0533ms total)
T0990 000:708 JLINK_IsHalted()  returns FALSE (0000ms, 0533ms total)
T0990 000:710 JLINK_IsHalted()  returns FALSE (0001ms, 0534ms total)
T0990 000:713 JLINK_IsHalted()  returns FALSE (0000ms, 0533ms total)
T0990 000:719 JLINK_IsHalted()  returns FALSE (0000ms, 0533ms total)
T0990 000:721 JLINK_IsHalted()  returns FALSE (0000ms, 0533ms total)
T0990 000:723 JLINK_IsHalted()  returns FALSE (0000ms, 0533ms total)
T0990 000:725 JLINK_IsHalted()  returns FALSE (0001ms, 0534ms total)
T0990 000:728 JLINK_IsHalted()  returns FALSE (0000ms, 0533ms total)
T0990 000:730 JLINK_IsHalted()  returns FALSE (0000ms, 0533ms total)
T0990 000:732 JLINK_IsHalted()  returns FALSE (0000ms, 0533ms total)
T0990 000:734 JLINK_IsHalted()  returns FALSE (0000ms, 0533ms total)
T0990 000:736 JLINK_IsHalted()  returns FALSE (0000ms, 0533ms total)
T0990 000:738 JLINK_IsHalted()  returns FALSE (0001ms, 0534ms total)
T0990 000:741 JLINK_IsHalted()  returns FALSE (0000ms, 0533ms total)
T0990 000:743 JLINK_IsHalted()  returns FALSE (0000ms, 0533ms total)
T0990 000:745 JLINK_IsHalted()  returns FALSE (0000ms, 0533ms total)
T0990 000:747 JLINK_IsHalted()  returns FALSE (0000ms, 0533ms total)
T0990 000:749 JLINK_IsHalted()  returns FALSE (0000ms, 0533ms total)
T0990 000:768 JLINK_IsHalted()  returns FALSE (0001ms, 0534ms total)
T0990 000:771 JLINK_IsHalted()  returns FALSE (0000ms, 0533ms total)
T0990 000:773 JLINK_IsHalted()  returns FALSE (0001ms, 0534ms total)
T0990 000:776 JLINK_IsHalted()  returns FALSE (0000ms, 0533ms total)
T0990 000:778 JLINK_IsHalted()  returns FALSE (0000ms, 0533ms total)
T0990 000:779 JLINK_IsHalted()  returns FALSE (0000ms, 0533ms total)
T0990 000:781 JLINK_IsHalted()  returns FALSE (0000ms, 0533ms total)
T0990 000:783 JLINK_IsHalted()  returns FALSE (0000ms, 0533ms total)
T0990 000:785 JLINK_IsHalted()  returns FALSE (0000ms, 0533ms total)
T0990 000:787 JLINK_IsHalted()  returns FALSE (0000ms, 0533ms total)
T0990 000:789 JLINK_IsHalted()  returns FALSE (0001ms, 0534ms total)
T0990 000:791 JLINK_IsHalted()  returns FALSE (0000ms, 0533ms total)
T0990 000:793 JLINK_IsHalted()  returns FALSE (0000ms, 0533ms total)
T0990 000:796 JLINK_IsHalted()  returns FALSE (0000ms, 0533ms total)
T0990 000:798 JLINK_IsHalted()  returns FALSE (0000ms, 0533ms total)
T0990 000:800 JLINK_IsHalted()  returns FALSE (0000ms, 0533ms total)
T0990 000:802 JLINK_IsHalted()  returns TRUE (0004ms, 0537ms total)
T0990 000:806 JLINK_ReadReg(R15 (PC))  returns 0x10000000 (0000ms, 0533ms total)
T0990 000:806 JLINK_ClrBPEx(BPHandle = 0x00000005)  returns 0x00 (0000ms, 0533ms total)
T0990 000:806 JLINK_ReadReg(R0)  returns 0x00000000 (0000ms, 0533ms total)
T0990 000:806 JLINK_WriteReg(R0, 0x00002000)  returns 0x00 (0000ms, 0533ms total)
T0990 000:806 JLINK_WriteReg(R1, 0x00001000)  returns 0x00 (0000ms, 0533ms total)
T0990 000:806 JLINK_WriteReg(R2, 0x000000FF)  returns 0x00 (0000ms, 0533ms total)
T0990 000:806 JLINK_WriteReg(R3, 0x00000000)  returns 0x00 (0000ms, 0533ms total)
T0990 000:806 JLINK_WriteReg(R4, 0x00000000)  returns 0x00 (0000ms, 0533ms total)
T0990 000:806 JLINK_WriteReg(R5, 0x00000000)  returns 0x00 (0000ms, 0533ms total)
T0990 000:806 JLINK_WriteReg(R6, 0x00000000)  returns 0x00 (0000ms, 0533ms total)
T0990 000:806 JLINK_WriteReg(R7, 0x00000000)  returns 0x00 (0000ms, 0533ms total)
T0990 000:806 JLINK_WriteReg(R8, 0x00000000)  returns 0x00 (0000ms, 0533ms total)
T0990 000:806 JLINK_WriteReg(R9, 0x100001DC)  returns 0x00 (0000ms, 0533ms total)
T0990 000:806 JLINK_WriteReg(R10, 0x00000000)  returns 0x00 (0000ms, 0533ms total)
T0990 000:806 JLINK_WriteReg(R11, 0x00000000)  returns 0x00 (0000ms, 0533ms total)
T0990 000:806 JLINK_WriteReg(R12, 0x00000000)  returns 0x00 (0000ms, 0533ms total)
T0990 000:806 JLINK_WriteReg(R13 (SP), 0x10000800)  returns 0x00 (0000ms, 0533ms total)
T0990 000:806 JLINK_WriteReg(R14, 0x10000001)  returns 0x00 (0000ms, 0533ms total)
T0990 000:806 JLINK_WriteReg(R15 (PC), 0x10000020)  returns 0x00 (0000ms, 0533ms total)
T0990 000:806 JLINK_WriteReg(XPSR, 0x01000000)  returns 0x00 (0000ms, 0533ms total)
T0990 000:806 JLINK_WriteReg(MSP, 0x10000800)  returns 0x00 (0000ms, 0533ms total)
T0990 000:806 JLINK_WriteReg(PSP, 0x10000800)  returns 0x00 (0000ms, 0533ms total)
T0990 000:806 JLINK_WriteReg(CFBP, 0x00000000)  returns 0x00 (0000ms, 0533ms total)
T0990 000:806 JLINK_SetBPEx(Addr = 0x10000000, Type = 0xFFFFFFF2)  returns 0x00000006 (0000ms, 0533ms total)
T0990 000:807 JLINK_Go() -- CPU_ReadMem(4 bytes @ 0xE0001000) (0004ms, 0538ms total)
T0990 000:811 JLINK_IsHalted()  returns TRUE (0003ms, 0541ms total)
T0990 000:814 JLINK_ReadReg(R15 (PC))  returns 0x10000000 (0000ms, 0538ms total)
T0990 000:814 JLINK_ClrBPEx(BPHandle = 0x00000006)  returns 0x00 (0000ms, 0538ms total)
T0990 000:814 JLINK_ReadReg(R0)  returns 0x00000001 (0000ms, 0538ms total)
T0990 000:814 JLINK_WriteReg(R0, 0x00002000)  returns 0x00 (0000ms, 0538ms total)
T0990 000:814 JLINK_WriteReg(R1, 0x00001000)  returns 0x00 (0000ms, 0538ms total)
T0990 000:814 JLINK_WriteReg(R2, 0x000000FF)  returns 0x00 (0000ms, 0538ms total)
T0990 000:814 JLINK_WriteReg(R3, 0x00000000)  returns 0x00 (0000ms, 0538ms total)
T0990 000:814 JLINK_WriteReg(R4, 0x00000000)  returns 0x00 (0000ms, 0538ms total)
T0990 000:814 JLINK_WriteReg(R5, 0x00000000)  returns 0x00 (0000ms, 0538ms total)
T0990 000:814 JLINK_WriteReg(R6, 0x00000000)  returns 0x00 (0000ms, 0538ms total)
T0990 000:814 JLINK_WriteReg(R7, 0x00000000)  returns 0x00 (0000ms, 0538ms total)
T0990 000:814 JLINK_WriteReg(R8, 0x00000000)  returns 0x00 (0000ms, 0538ms total)
T0990 000:814 JLINK_WriteReg(R9, 0x100001DC)  returns 0x00 (0000ms, 0538ms total)
T0990 000:814 JLINK_WriteReg(R10, 0x00000000)  returns 0x00 (0000ms, 0538ms total)
T0990 000:814 JLINK_WriteReg(R11, 0x00000000)  returns 0x00 (0000ms, 0538ms total)
T0990 000:814 JLINK_WriteReg(R12, 0x00000000)  returns 0x00 (0000ms, 0538ms total)
T0990 000:814 JLINK_WriteReg(R13 (SP), 0x10000800)  returns 0x00 (0000ms, 0538ms total)
T0990 000:814 JLINK_WriteReg(R14, 0x10000001)  returns 0x00 (0000ms, 0538ms total)
T0990 000:814 JLINK_WriteReg(R15 (PC), 0x10000110)  returns 0x00 (0000ms, 0538ms total)
T0990 000:814 JLINK_WriteReg(XPSR, 0x01000000)  returns 0x00 (0000ms, 0538ms total)
T0990 000:814 JLINK_WriteReg(MSP, 0x10000800)  returns 0x00 (0000ms, 0538ms total)
T0990 000:814 JLINK_WriteReg(PSP, 0x10000800)  returns 0x00 (0000ms, 0538ms total)
T0990 000:814 JLINK_WriteReg(CFBP, 0x00000000)  returns 0x00 (0000ms, 0538ms total)
T0990 000:814 JLINK_SetBPEx(Addr = 0x10000000, Type = 0xFFFFFFF2)  returns 0x00000007 (0000ms, 0538ms total)
T0990 000:814 JLINK_Go() -- CPU_ReadMem(4 bytes @ 0xE0001000) (0004ms, 0542ms total)
T0990 000:818 JLINK_IsHalted()  returns FALSE (0000ms, 0542ms total)
T0990 000:820 JLINK_IsHalted()  returns FALSE (0001ms, 0543ms total)
T0990 000:823 JLINK_IsHalted()  returns FALSE (0000ms, 0542ms total)
T0990 000:825 JLINK_IsHalted()  returns FALSE (0000ms, 0542ms total)
T0990 000:827 JLINK_IsHalted()  returns FALSE (0001ms, 0543ms total)
T0990 000:830 JLINK_IsHalted()  returns FALSE (0000ms, 0542ms total)
T0990 000:832 JLINK_IsHalted()  returns FALSE (0000ms, 0542ms total)
T0990 000:834 JLINK_IsHalted()  returns FALSE (0000ms, 0542ms total)
T0990 000:836 JLINK_IsHalted()  returns FALSE (0000ms, 0542ms total)
T0990 000:838 JLINK_IsHalted()  returns FALSE (0000ms, 0542ms total)
T0990 000:840 JLINK_IsHalted()  returns FALSE (0001ms, 0543ms total)
T0990 000:843 JLINK_IsHalted()  returns FALSE (0000ms, 0542ms total)
T0990 000:845 JLINK_IsHalted()  returns FALSE (0001ms, 0543ms total)
T0990 000:848 JLINK_IsHalted()  returns FALSE (0000ms, 0542ms total)
T0990 000:850 JLINK_IsHalted()  returns FALSE (0001ms, 0543ms total)
T0990 000:853 JLINK_IsHalted()  returns FALSE (0000ms, 0542ms total)
T0990 000:855 JLINK_IsHalted()  returns FALSE (0000ms, 0542ms total)
T0990 000:857 JLINK_IsHalted()  returns FALSE (0000ms, 0542ms total)
T0990 000:878 JLINK_IsHalted()  returns FALSE (0000ms, 0542ms total)
T0990 000:880 JLINK_IsHalted()  returns FALSE (0000ms, 0542ms total)
T0990 000:882 JLINK_IsHalted()  returns FALSE (0001ms, 0543ms total)
T0990 000:885 JLINK_IsHalted()  returns FALSE (0000ms, 0542ms total)
T0990 000:887 JLINK_IsHalted()  returns FALSE (0001ms, 0543ms total)
T0990 000:890 JLINK_IsHalted()  returns FALSE (0000ms, 0542ms total)
T0990 000:892 JLINK_IsHalted()  returns FALSE (0000ms, 0542ms total)
T0990 000:894 JLINK_IsHalted()  returns FALSE (0001ms, 0543ms total)
T0990 000:897 JLINK_IsHalted()  returns FALSE (0000ms, 0542ms total)
T0990 000:899 JLINK_IsHalted()  returns FALSE (0001ms, 0543ms total)
T0990 000:902 JLINK_IsHalted()  returns FALSE (0000ms, 0542ms total)
T0990 000:904 JLINK_IsHalted()  returns FALSE (0000ms, 0542ms total)
T0990 000:906 JLINK_IsHalted()  returns FALSE (0000ms, 0542ms total)
T0990 000:908 JLINK_IsHalted()  returns FALSE (0001ms, 0543ms total)
T0990 000:911 JLINK_IsHalted()  returns FALSE (0000ms, 0542ms total)
T0990 000:913 JLINK_IsHalted()  returns FALSE (0000ms, 0542ms total)
T0990 000:915 JLINK_IsHalted()  returns FALSE (0000ms, 0542ms total)
T0990 000:917 JLINK_IsHalted()  returns FALSE (0000ms, 0542ms total)
T0990 000:919 JLINK_IsHalted()  returns TRUE (0004ms, 0546ms total)
T0990 000:923 JLINK_ReadReg(R15 (PC))  returns 0x10000000 (0000ms, 0542ms total)
T0990 000:923 JLINK_ClrBPEx(BPHandle = 0x00000007)  returns 0x00 (0000ms, 0542ms total)
T0990 000:923 JLINK_ReadReg(R0)  returns 0x00000000 (0000ms, 0542ms total)
T0990 000:924 JLINK_WriteReg(R0, 0x00003000)  returns 0x00 (0000ms, 0542ms total)
T0990 000:924 JLINK_WriteReg(R1, 0x00001000)  returns 0x00 (0000ms, 0542ms total)
T0990 000:924 JLINK_WriteReg(R2, 0x000000FF)  returns 0x00 (0000ms, 0542ms total)
T0990 000:924 JLINK_WriteReg(R3, 0x00000000)  returns 0x00 (0000ms, 0542ms total)
T0990 000:924 JLINK_WriteReg(R4, 0x00000000)  returns 0x00 (0000ms, 0542ms total)
T0990 000:924 JLINK_WriteReg(R5, 0x00000000)  returns 0x00 (0000ms, 0542ms total)
T0990 000:924 JLINK_WriteReg(R6, 0x00000000)  returns 0x00 (0000ms, 0542ms total)
T0990 000:924 JLINK_WriteReg(R7, 0x00000000)  returns 0x00 (0000ms, 0542ms total)
T0990 000:924 JLINK_WriteReg(R8, 0x00000000)  returns 0x00 (0000ms, 0542ms total)
T0990 000:924 JLINK_WriteReg(R9, 0x100001DC)  returns 0x00 (0000ms, 0542ms total)
T0990 000:924 JLINK_WriteReg(R10, 0x00000000)  returns 0x00 (0000ms, 0542ms total)
T0990 000:924 JLINK_WriteReg(R11, 0x00000000)  returns 0x00 (0000ms, 0542ms total)
T0990 000:924 JLINK_WriteReg(R12, 0x00000000)  returns 0x00 (0000ms, 0542ms total)
T0990 000:924 JLINK_WriteReg(R13 (SP), 0x10000800)  returns 0x00 (0000ms, 0542ms total)
T0990 000:924 JLINK_WriteReg(R14, 0x10000001)  returns 0x00 (0000ms, 0542ms total)
T0990 000:924 JLINK_WriteReg(R15 (PC), 0x10000020)  returns 0x00 (0000ms, 0542ms total)
T0990 000:924 JLINK_WriteReg(XPSR, 0x01000000)  returns 0x00 (0000ms, 0542ms total)
T0990 000:924 JLINK_WriteReg(MSP, 0x10000800)  returns 0x00 (0000ms, 0542ms total)
T0990 000:924 JLINK_WriteReg(PSP, 0x10000800)  returns 0x00 (0000ms, 0542ms total)
T0990 000:924 JLINK_WriteReg(CFBP, 0x00000000)  returns 0x00 (0000ms, 0542ms total)
T0990 000:924 JLINK_SetBPEx(Addr = 0x10000000, Type = 0xFFFFFFF2)  returns 0x00000008 (0000ms, 0542ms total)
T0990 000:924 JLINK_Go() -- CPU_ReadMem(4 bytes @ 0xE0001000) (0004ms, 0546ms total)
T0990 000:928 JLINK_IsHalted()  returns TRUE (0004ms, 0550ms total)
T0990 000:932 JLINK_ReadReg(R15 (PC))  returns 0x10000000 (0000ms, 0546ms total)
T0990 000:932 JLINK_ClrBPEx(BPHandle = 0x00000008)  returns 0x00 (0000ms, 0546ms total)
T0990 000:932 JLINK_ReadReg(R0)  returns 0x00000001 (0000ms, 0546ms total)
T0990 000:932 JLINK_WriteReg(R0, 0x00003000)  returns 0x00 (0000ms, 0546ms total)
T0990 000:932 JLINK_WriteReg(R1, 0x00001000)  returns 0x00 (0000ms, 0546ms total)
T0990 000:932 JLINK_WriteReg(R2, 0x000000FF)  returns 0x00 (0000ms, 0546ms total)
T0990 000:932 JLINK_WriteReg(R3, 0x00000000)  returns 0x00 (0000ms, 0546ms total)
T0990 000:932 JLINK_WriteReg(R4, 0x00000000)  returns 0x00 (0000ms, 0546ms total)
T0990 000:932 JLINK_WriteReg(R5, 0x00000000)  returns 0x00 (0000ms, 0546ms total)
T0990 000:932 JLINK_WriteReg(R6, 0x00000000)  returns 0x00 (0000ms, 0546ms total)
T0990 000:932 JLINK_WriteReg(R7, 0x00000000)  returns 0x00 (0000ms, 0546ms total)
T0990 000:932 JLINK_WriteReg(R8, 0x00000000)  returns 0x00 (0000ms, 0546ms total)
T0990 000:932 JLINK_WriteReg(R9, 0x100001DC)  returns 0x00 (0000ms, 0546ms total)
T0990 000:932 JLINK_WriteReg(R10, 0x00000000)  returns 0x00 (0000ms, 0546ms total)
T0990 000:932 JLINK_WriteReg(R11, 0x00000000)  returns 0x00 (0000ms, 0546ms total)
T0990 000:932 JLINK_WriteReg(R12, 0x00000000)  returns 0x00 (0000ms, 0546ms total)
T0990 000:932 JLINK_WriteReg(R13 (SP), 0x10000800)  returns 0x00 (0000ms, 0546ms total)
T0990 000:932 JLINK_WriteReg(R14, 0x10000001)  returns 0x00 (0000ms, 0546ms total)
T0990 000:932 JLINK_WriteReg(R15 (PC), 0x10000110)  returns 0x00 (0000ms, 0546ms total)
T0990 000:932 JLINK_WriteReg(XPSR, 0x01000000)  returns 0x00 (0000ms, 0546ms total)
T0990 000:932 JLINK_WriteReg(MSP, 0x10000800)  returns 0x00 (0000ms, 0546ms total)
T0990 000:932 JLINK_WriteReg(PSP, 0x10000800)  returns 0x00 (0000ms, 0546ms total)
T0990 000:932 JLINK_WriteReg(CFBP, 0x00000000)  returns 0x00 (0001ms, 0547ms total)
T0990 000:933 JLINK_SetBPEx(Addr = 0x10000000, Type = 0xFFFFFFF2)  returns 0x00000009 (0000ms, 0547ms total)
T0990 000:933 JLINK_Go() -- CPU_ReadMem(4 bytes @ 0xE0001000) (0004ms, 0551ms total)
T0990 000:937 JLINK_IsHalted()  returns FALSE (0001ms, 0552ms total)
T0990 000:940 JLINK_IsHalted()  returns FALSE (0000ms, 0551ms total)
T0990 000:942 JLINK_IsHalted()  returns FALSE (0000ms, 0551ms total)
T0990 000:944 JLINK_IsHalted()  returns FALSE (0001ms, 0552ms total)
T0990 000:947 JLINK_IsHalted()  returns FALSE (0000ms, 0551ms total)
T0990 000:949 JLINK_IsHalted()  returns FALSE (0000ms, 0551ms total)
T0990 000:951 JLINK_IsHalted()  returns FALSE (0000ms, 0551ms total)
T0990 000:953 JLINK_IsHalted()  returns FALSE (0001ms, 0552ms total)
T0990 000:956 JLINK_IsHalted()  returns FALSE (0000ms, 0551ms total)
T0990 000:958 JLINK_IsHalted()  returns FALSE (0000ms, 0551ms total)
T0990 000:960 JLINK_IsHalted()  returns FALSE (0001ms, 0552ms total)
T0990 000:963 JLINK_IsHalted()  returns FALSE (0000ms, 0551ms total)
T0990 000:965 JLINK_IsHalted()  returns FALSE (0000ms, 0551ms total)
T0990 000:983 JLINK_IsHalted()  returns FALSE (0000ms, 0551ms total)
T0990 000:985 JLINK_IsHalted()  returns FALSE (0000ms, 0551ms total)
T0990 000:987 JLINK_IsHalted()  returns FALSE (0000ms, 0551ms total)
T0990 000:989 JLINK_IsHalted()  returns FALSE (0000ms, 0551ms total)
T0990 000:991 JLINK_IsHalted()  returns FALSE (0000ms, 0551ms total)
T0990 000:993 JLINK_IsHalted()  returns FALSE (0000ms, 0551ms total)
T0990 000:995 JLINK_IsHalted()  returns FALSE (0000ms, 0551ms total)
T0990 000:997 JLINK_IsHalted()  returns FALSE (0000ms, 0551ms total)
T0990 000:999 JLINK_IsHalted()  returns FALSE (0000ms, 0551ms total)
T0990 001:001 JLINK_IsHalted()  returns FALSE (0000ms, 0551ms total)
T0990 001:003 JLINK_IsHalted()  returns FALSE (0000ms, 0551ms total)
T0990 001:005 JLINK_IsHalted()  returns FALSE (0000ms, 0551ms total)
T0990 001:007 JLINK_IsHalted()  returns FALSE (0000ms, 0551ms total)
T0990 001:009 JLINK_IsHalted()  returns FALSE (0000ms, 0551ms total)
T0990 001:011 JLINK_IsHalted()  returns FALSE (0000ms, 0551ms total)
T0990 001:013 JLINK_IsHalted()  returns FALSE (0000ms, 0551ms total)
T0990 001:015 JLINK_IsHalted()  returns FALSE (0000ms, 0551ms total)
T0990 001:017 JLINK_IsHalted()  returns FALSE (0000ms, 0551ms total)
T0990 001:019 JLINK_IsHalted()  returns FALSE (0001ms, 0552ms total)
T0990 001:022 JLINK_IsHalted()  returns FALSE (0000ms, 0551ms total)
T0990 001:024 JLINK_IsHalted()  returns FALSE (0000ms, 0551ms total)
T0990 001:026 JLINK_IsHalted()  returns FALSE (0001ms, 0552ms total)
T0990 001:029 JLINK_IsHalted()  returns FALSE (0000ms, 0551ms total)
T0990 001:031 JLINK_IsHalted()  returns FALSE (0001ms, 0552ms total)
T0990 001:034 JLINK_IsHalted()  returns FALSE (0000ms, 0551ms total)
T0990 001:036 JLINK_IsHalted()  returns FALSE (0000ms, 0551ms total)
T0990 001:038 JLINK_IsHalted()  returns TRUE (0004ms, 0555ms total)
T0990 001:042 JLINK_ReadReg(R15 (PC))  returns 0x10000000 (0000ms, 0551ms total)
T0990 001:042 JLINK_ClrBPEx(BPHandle = 0x00000009)  returns 0x00 (0000ms, 0551ms total)
T0990 001:042 JLINK_ReadReg(R0)  returns 0x00000000 (0000ms, 0551ms total)
T0990 001:042 JLINK_WriteReg(R0, 0x00004000)  returns 0x00 (0000ms, 0551ms total)
T0990 001:042 JLINK_WriteReg(R1, 0x00001000)  returns 0x00 (0000ms, 0551ms total)
T0990 001:042 JLINK_WriteReg(R2, 0x000000FF)  returns 0x00 (0000ms, 0551ms total)
T0990 001:042 JLINK_WriteReg(R3, 0x00000000)  returns 0x00 (0001ms, 0552ms total)
T0990 001:043 JLINK_WriteReg(R4, 0x00000000)  returns 0x00 (0000ms, 0552ms total)
T0990 001:043 JLINK_WriteReg(R5, 0x00000000)  returns 0x00 (0000ms, 0552ms total)
T0990 001:043 JLINK_WriteReg(R6, 0x00000000)  returns 0x00 (0000ms, 0552ms total)
T0990 001:043 JLINK_WriteReg(R7, 0x00000000)  returns 0x00 (0000ms, 0552ms total)
T0990 001:043 JLINK_WriteReg(R8, 0x00000000)  returns 0x00 (0000ms, 0552ms total)
T0990 001:043 JLINK_WriteReg(R9, 0x100001DC)  returns 0x00 (0000ms, 0552ms total)
T0990 001:043 JLINK_WriteReg(R10, 0x00000000)  returns 0x00 (0000ms, 0552ms total)
T0990 001:043 JLINK_WriteReg(R11, 0x00000000)  returns 0x00 (0000ms, 0552ms total)
T0990 001:043 JLINK_WriteReg(R12, 0x00000000)  returns 0x00 (0000ms, 0552ms total)
T0990 001:043 JLINK_WriteReg(R13 (SP), 0x10000800)  returns 0x00 (0000ms, 0552ms total)
T0990 001:043 JLINK_WriteReg(R14, 0x10000001)  returns 0x00 (0000ms, 0552ms total)
T0990 001:043 JLINK_WriteReg(R15 (PC), 0x10000020)  returns 0x00 (0000ms, 0552ms total)
T0990 001:043 JLINK_WriteReg(XPSR, 0x01000000)  returns 0x00 (0000ms, 0552ms total)
T0990 001:043 JLINK_WriteReg(MSP, 0x10000800)  returns 0x00 (0000ms, 0552ms total)
T0990 001:043 JLINK_WriteReg(PSP, 0x10000800)  returns 0x00 (0000ms, 0552ms total)
T0990 001:043 JLINK_WriteReg(CFBP, 0x00000000)  returns 0x00 (0000ms, 0552ms total)
T0990 001:043 JLINK_SetBPEx(Addr = 0x10000000, Type = 0xFFFFFFF2)  returns 0x0000000A (0000ms, 0552ms total)
T0990 001:043 JLINK_Go() -- CPU_ReadMem(4 bytes @ 0xE0001000) (0004ms, 0556ms total)
T0990 001:047 JLINK_IsHalted()  returns TRUE (0004ms, 0560ms total)
T0990 001:051 JLINK_ReadReg(R15 (PC))  returns 0x10000000 (0000ms, 0556ms total)
T0990 001:051 JLINK_ClrBPEx(BPHandle = 0x0000000A)  returns 0x00 (0000ms, 0556ms total)
T0990 001:051 JLINK_ReadReg(R0)  returns 0x00000001 (0000ms, 0556ms total)
T0990 001:051 JLINK_WriteReg(R0, 0x00004000)  returns 0x00 (0000ms, 0556ms total)
T0990 001:051 JLINK_WriteReg(R1, 0x00001000)  returns 0x00 (0000ms, 0556ms total)
T0990 001:051 JLINK_WriteReg(R2, 0x000000FF)  returns 0x00 (0000ms, 0556ms total)
T0990 001:051 JLINK_WriteReg(R3, 0x00000000)  returns 0x00 (0000ms, 0556ms total)
T0990 001:051 JLINK_WriteReg(R4, 0x00000000)  returns 0x00 (0000ms, 0556ms total)
T0990 001:051 JLINK_WriteReg(R5, 0x00000000)  returns 0x00 (0000ms, 0556ms total)
T0990 001:051 JLINK_WriteReg(R6, 0x00000000)  returns 0x00 (0000ms, 0556ms total)
T0990 001:051 JLINK_WriteReg(R7, 0x00000000)  returns 0x00 (0000ms, 0556ms total)
T0990 001:051 JLINK_WriteReg(R8, 0x00000000)  returns 0x00 (0000ms, 0556ms total)
T0990 001:051 JLINK_WriteReg(R9, 0x100001DC)  returns 0x00 (0000ms, 0556ms total)
T0990 001:051 JLINK_WriteReg(R10, 0x00000000)  returns 0x00 (0000ms, 0556ms total)
T0990 001:051 JLINK_WriteReg(R11, 0x00000000)  returns 0x00 (0000ms, 0556ms total)
T0990 001:051 JLINK_WriteReg(R12, 0x00000000)  returns 0x00 (0000ms, 0556ms total)
T0990 001:051 JLINK_WriteReg(R13 (SP), 0x10000800)  returns 0x00 (0000ms, 0556ms total)
T0990 001:051 JLINK_WriteReg(R14, 0x10000001)  returns 0x00 (0000ms, 0556ms total)
T0990 001:051 JLINK_WriteReg(R15 (PC), 0x10000110)  returns 0x00 (0000ms, 0556ms total)
T0990 001:051 JLINK_WriteReg(XPSR, 0x01000000)  returns 0x00 (0000ms, 0556ms total)
T0990 001:051 JLINK_WriteReg(MSP, 0x10000800)  returns 0x00 (0000ms, 0556ms total)
T0990 001:051 JLINK_WriteReg(PSP, 0x10000800)  returns 0x00 (0000ms, 0556ms total)
T0990 001:051 JLINK_WriteReg(CFBP, 0x00000000)  returns 0x00 (0000ms, 0556ms total)
T0990 001:051 JLINK_SetBPEx(Addr = 0x10000000, Type = 0xFFFFFFF2)  returns 0x0000000B (0000ms, 0556ms total)
T0990 001:051 JLINK_Go() -- CPU_ReadMem(4 bytes @ 0xE0001000) (0004ms, 0560ms total)
T0990 001:055 JLINK_IsHalted()  returns FALSE (0001ms, 0561ms total)
T0990 001:058 JLINK_IsHalted()  returns FALSE (0000ms, 0560ms total)
T0990 001:061 JLINK_IsHalted()  returns FALSE (0000ms, 0560ms total)
T0990 001:063 JLINK_IsHalted()  returns FALSE (0000ms, 0560ms total)
T0990 001:065 JLINK_IsHalted()  returns FALSE (0000ms, 0560ms total)
T0990 001:067 JLINK_IsHalted()  returns FALSE (0001ms, 0561ms total)
T0990 001:070 JLINK_IsHalted()  returns FALSE (0000ms, 0560ms total)
T0990 001:072 JLINK_IsHalted()  returns FALSE (0000ms, 0560ms total)
T0990 001:074 JLINK_IsHalted()  returns FALSE (0000ms, 0560ms total)
T0990 001:076 JLINK_IsHalted()  returns FALSE (0000ms, 0560ms total)
T0990 001:097 JLINK_IsHalted()  returns FALSE (0000ms, 0560ms total)
T0990 001:099 JLINK_IsHalted()  returns FALSE (0000ms, 0560ms total)
T0990 001:101 JLINK_IsHalted()  returns FALSE (0000ms, 0560ms total)
T0990 001:103 JLINK_IsHalted()  returns FALSE (0000ms, 0560ms total)
T0990 001:105 JLINK_IsHalted()  returns FALSE (0000ms, 0560ms total)
T0990 001:107 JLINK_IsHalted()  returns FALSE (0000ms, 0560ms total)
T0990 001:109 JLINK_IsHalted()  returns FALSE (0000ms, 0560ms total)
T0990 001:111 JLINK_IsHalted()  returns FALSE (0000ms, 0560ms total)
T0990 001:113 JLINK_IsHalted()  returns FALSE (0000ms, 0560ms total)
T0990 001:115 JLINK_IsHalted()  returns FALSE (0000ms, 0560ms total)
T0990 001:117 JLINK_IsHalted()  returns FALSE (0000ms, 0560ms total)
T0990 001:119 JLINK_IsHalted()  returns FALSE (0000ms, 0560ms total)
T0990 001:123 JLINK_IsHalted()  returns FALSE (0000ms, 0560ms total)
T0990 001:125 JLINK_IsHalted()  returns FALSE (0000ms, 0560ms total)
T0990 001:127 JLINK_IsHalted()  returns FALSE (0000ms, 0560ms total)
T0990 001:129 JLINK_IsHalted()  returns FALSE (0000ms, 0560ms total)
T0990 001:131 JLINK_IsHalted()  returns FALSE (0001ms, 0561ms total)
T0990 001:133 JLINK_IsHalted()  returns FALSE (0000ms, 0560ms total)
T0990 001:134 JLINK_IsHalted()  returns FALSE (0000ms, 0560ms total)
T0990 001:136 JLINK_IsHalted()  returns FALSE (0000ms, 0560ms total)
T0990 001:138 JLINK_IsHalted()  returns FALSE (0001ms, 0561ms total)
T0990 001:141 JLINK_IsHalted()  returns FALSE (0000ms, 0560ms total)
T0990 001:143 JLINK_IsHalted()  returns FALSE (0000ms, 0560ms total)
T0990 001:145 JLINK_IsHalted()  returns FALSE (0000ms, 0560ms total)
T0990 001:147 JLINK_IsHalted()  returns FALSE (0000ms, 0560ms total)
T0990 001:149 JLINK_IsHalted()  returns FALSE (0000ms, 0560ms total)
T0990 001:151 JLINK_IsHalted()  returns FALSE (0000ms, 0560ms total)
T0990 001:153 JLINK_IsHalted()  returns FALSE (0001ms, 0561ms total)
T0990 001:155 JLINK_IsHalted()  returns FALSE (0000ms, 0560ms total)
T0990 001:157 JLINK_IsHalted()  returns TRUE (0004ms, 0564ms total)
T0990 001:161 JLINK_ReadReg(R15 (PC))  returns 0x10000000 (0000ms, 0560ms total)
T0990 001:161 JLINK_ClrBPEx(BPHandle = 0x0000000B)  returns 0x00 (0000ms, 0560ms total)
T0990 001:161 JLINK_ReadReg(R0)  returns 0x00000000 (0000ms, 0560ms total)
T0990 001:161 JLINK_WriteReg(R0, 0x00005000)  returns 0x00 (0000ms, 0560ms total)
T0990 001:161 JLINK_WriteReg(R1, 0x00001000)  returns 0x00 (0000ms, 0560ms total)
T0990 001:161 JLINK_WriteReg(R2, 0x000000FF)  returns 0x00 (0000ms, 0560ms total)
T0990 001:161 JLINK_WriteReg(R3, 0x00000000)  returns 0x00 (0000ms, 0560ms total)
T0990 001:161 JLINK_WriteReg(R4, 0x00000000)  returns 0x00 (0000ms, 0560ms total)
T0990 001:161 JLINK_WriteReg(R5, 0x00000000)  returns 0x00 (0000ms, 0560ms total)
T0990 001:161 JLINK_WriteReg(R6, 0x00000000)  returns 0x00 (0000ms, 0560ms total)
T0990 001:161 JLINK_WriteReg(R7, 0x00000000)  returns 0x00 (0000ms, 0560ms total)
T0990 001:161 JLINK_WriteReg(R8, 0x00000000)  returns 0x00 (0000ms, 0560ms total)
T0990 001:161 JLINK_WriteReg(R9, 0x100001DC)  returns 0x00 (0000ms, 0560ms total)
T0990 001:161 JLINK_WriteReg(R10, 0x00000000)  returns 0x00 (0000ms, 0560ms total)
T0990 001:161 JLINK_WriteReg(R11, 0x00000000)  returns 0x00 (0000ms, 0560ms total)
T0990 001:161 JLINK_WriteReg(R12, 0x00000000)  returns 0x00 (0000ms, 0560ms total)
T0990 001:161 JLINK_WriteReg(R13 (SP), 0x10000800)  returns 0x00 (0000ms, 0560ms total)
T0990 001:161 JLINK_WriteReg(R14, 0x10000001)  returns 0x00 (0000ms, 0560ms total)
T0990 001:161 JLINK_WriteReg(R15 (PC), 0x10000020)  returns 0x00 (0000ms, 0560ms total)
T0990 001:161 JLINK_WriteReg(XPSR, 0x01000000)  returns 0x00 (0000ms, 0560ms total)
T0990 001:161 JLINK_WriteReg(MSP, 0x10000800)  returns 0x00 (0000ms, 0560ms total)
T0990 001:161 JLINK_WriteReg(PSP, 0x10000800)  returns 0x00 (0000ms, 0560ms total)
T0990 001:161 JLINK_WriteReg(CFBP, 0x00000000)  returns 0x00 (0000ms, 0560ms total)
T0990 001:161 JLINK_SetBPEx(Addr = 0x10000000, Type = 0xFFFFFFF2)  returns 0x0000000C (0000ms, 0560ms total)
T0990 001:161 JLINK_Go() -- CPU_ReadMem(4 bytes @ 0xE0001000) (0004ms, 0564ms total)
T0990 001:165 JLINK_IsHalted()  returns TRUE (0004ms, 0568ms total)
T0990 001:169 JLINK_ReadReg(R15 (PC))  returns 0x10000000 (0000ms, 0564ms total)
T0990 001:169 JLINK_ClrBPEx(BPHandle = 0x0000000C)  returns 0x00 (0000ms, 0564ms total)
T0990 001:169 JLINK_ReadReg(R0)  returns 0x00000001 (0000ms, 0564ms total)
T0990 001:169 JLINK_WriteReg(R0, 0x00005000)  returns 0x00 (0000ms, 0564ms total)
T0990 001:169 JLINK_WriteReg(R1, 0x00001000)  returns 0x00 (0000ms, 0564ms total)
T0990 001:169 JLINK_WriteReg(R2, 0x000000FF)  returns 0x00 (0000ms, 0564ms total)
T0990 001:169 JLINK_WriteReg(R3, 0x00000000)  returns 0x00 (0000ms, 0564ms total)
T0990 001:169 JLINK_WriteReg(R4, 0x00000000)  returns 0x00 (0000ms, 0564ms total)
T0990 001:169 JLINK_WriteReg(R5, 0x00000000)  returns 0x00 (0000ms, 0564ms total)
T0990 001:169 JLINK_WriteReg(R6, 0x00000000)  returns 0x00 (0000ms, 0564ms total)
T0990 001:169 JLINK_WriteReg(R7, 0x00000000)  returns 0x00 (0000ms, 0564ms total)
T0990 001:169 JLINK_WriteReg(R8, 0x00000000)  returns 0x00 (0000ms, 0564ms total)
T0990 001:169 JLINK_WriteReg(R9, 0x100001DC)  returns 0x00 (0000ms, 0564ms total)
T0990 001:169 JLINK_WriteReg(R10, 0x00000000)  returns 0x00 (0000ms, 0564ms total)
T0990 001:169 JLINK_WriteReg(R11, 0x00000000)  returns 0x00 (0000ms, 0564ms total)
T0990 001:169 JLINK_WriteReg(R12, 0x00000000)  returns 0x00 (0000ms, 0564ms total)
T0990 001:169 JLINK_WriteReg(R13 (SP), 0x10000800)  returns 0x00 (0000ms, 0564ms total)
